
**** 03/04/25 23:02:44 *********** Evaluation PSpice (Nov 1999) **************

 Zdroj proudu s vhodnou napetovou referenci


 ****     CIRCUIT DESCRIPTION


******************************************************************************




*** NETLIST ***
Vcc out 1 5  ;prozatim 5V
Rb out 4 100  ;prozatimni hodnota
Rload out 2 100  ;prozatimni hodnota
Rs 3 0 100  ;prozatimni hodnota
Xref 3 0 4 TL431  ;referenci napeti podle nahradniho obvodu
Q1 3 4 2 Q2N2222  ;nahodny jfet

Vaux 2 5 0  ; pomocne napeti pro vystup

*** PRIKAZY ***
.include /home/llev/OneDrive/4_letni/MPS/mps_projekt/tl431.mod

**** INCLUDING tl431.mod ****
*****************************************************************************
* TL431 MACROMODEL ***************3-26-92************************************
* REV N/A ****************************************************************DBB
*****************************************************************************
*              REFERENCE
*              |  ANODE
*              |  |  CATHODE
*              |  |  |
.SUBCKT  TL431 1  2  3
V1  6  7  DC  1.4V
I1  2  4  1E-3
R1  1  2  1.2E6
R2  4  2  RMOD 2.495E3
R3  5  7  .2
D1  3  6  DMOD1
D2  2  3  DMOD1
D3  2  7  DMOD2
E1  5  2  POLY(2)  (4,2)  (1,2)  0  710  -710
.MODEL RMOD RES (TC1=1.4E-5 TC2=-1E-6)
.MODEL DMOD1 D (RS=.3)
.MODEL DMOD2 D (RS=1E-6)
.ENDS

**** RESUMING main.cir ****
.lib mps.lib
.tran 10u 10m
.end

Unable to find index file mps.ind for library file mps.lib
Making new index file mps.ind for library file mps.lib
Index has 25 entries from 1 file(s).

**** 03/04/25 23:02:44 *********** Evaluation PSpice (Nov 1999) **************

 Zdroj proudu s vhodnou napetovou referenci


 ****     Diode MODEL PARAMETERS


******************************************************************************




               Xref.DMOD1      Xref.DMOD2      
          IS   10.000000E-15   10.000000E-15 
          RS     .3             1.000000E-06 


**** 03/04/25 23:02:44 *********** Evaluation PSpice (Nov 1999) **************

 Zdroj proudu s vhodnou napetovou referenci


 ****     BJT MODEL PARAMETERS


******************************************************************************




               Q2N2222         
               NPN             
          IS   14.340000E-15 
          BF  100            
          NF    1            
         VAF   74.03         
         IKF     .2847       
         ISE   14.340000E-15 
          NE    1.307        
          BR    6.092        
          NR    1            
          RB   10            
          RC    1            
         CJE  126.000000E-12 
         MJE     .377        
         CJC   38.000000E-12 
         MJC     .3416       
          TF   12.000000E-09 
         XTF    3            
         VTF    1.7          
         ITF     .6          
          TR  200.000000E-09 
         XTB    1.5          
          CN    2.42         
           D     .87         


**** 03/04/25 23:02:44 *********** Evaluation PSpice (Nov 1999) **************

 Zdroj proudu s vhodnou napetovou referenci


 ****     Resistor MODEL PARAMETERS


******************************************************************************




               Xref.RMOD       
           R    1            
         TC1   14.000000E-06 
         TC2   -1.000000E-06 


**** 03/04/25 23:02:44 *********** Evaluation PSpice (Nov 1999) **************

 Zdroj proudu s vhodnou napetovou referenci


 ****     INITIAL TRANSIENT SOLUTION       TEMPERATURE =   27.000 DEG C


******************************************************************************



 NODE   VOLTAGE     NODE   VOLTAGE     NODE   VOLTAGE     NODE   VOLTAGE


(    1)   -4.7006  (    2)     .2994  (    3) 177.2E-09  (    4)     .2994      

(    5)     .2994  (  out)     .2994  (Xref.4)    2.4950 (Xref.5) 1771.5000     

(Xref.6) 1772.9000 (Xref.7) 1771.5000 




    VOLTAGE SOURCE CURRENTS
    NAME         CURRENT

    Vcc          0.000E+00
    Vaux         0.000E+00
    Xref.V1     -1.773E-09

    TOTAL POWER DISSIPATION   2.48E-09  WATTS



          JOB CONCLUDED

          TOTAL JOB TIME             .06
